T2714 000:008.430   SEGGER J-Link V7.92k Log File
T2714 000:008.512   DLL Compiled: Oct 18 2023 14:58:31
T2714 000:008.519   Logging started @ 2024-09-18 12:33
T2714 000:008.525   Process: C:\Users\WuYunhao\Desktop\STM32\Environment\Keil 5\Core\UV4\UV4.exe
T2714 000:008.532 - 8.531ms
T2714 000:008.541 JLINK_SetWarnOutHandler(...)
T2714 000:008.547 - 0.007ms
T2714 000:008.554 JLINK_OpenEx(...)
T2714 000:009.640   Firmware: J-Link OB-STM32F072-CortexM compiled Mar  8 2016 11:15:54
T2714 000:009.964   Firmware: J-Link OB-STM32F072-CortexM compiled Mar  8 2016 11:15:54
T2714 000:010.075   Decompressing FW timestamp took 87 us
T2714 000:011.071   Decompressing FW took 983 us
T2714 000:011.193   Looking for J-Link GUI Server exe at: C:\Users\WuYunhao\Desktop\STM32\Environment\Keil 5\Core\ARM\Segger\JLinkGUIServer.exe
T2714 000:011.282   Looking for J-Link GUI Server exe at: C:\Program Files\SEGGER\JLink\JLinkGUIServer.exe
T2714 000:011.317   Forking J-Link GUI Server: C:\Program Files\SEGGER\JLink\JLinkGUIServer.exe
T2714 000:022.527   J-Link GUI Server info: "J-Link GUI server V7.92c "
T2714 001:403.227   Hardware: V1.00
T2714 001:403.280   S/N: 4294967295
T2714 001:403.299   OEM: SEGGER
T2714 001:403.337   Feature(s): None
T2714 001:403.949   Bootloader: (Could not read)
T2714 001:404.863   TELNET listener socket opened on port 19021
T2714 001:405.086   WEBSRV WEBSRV_Init(): Starting webserver thread(s)
T2714 001:405.355   WEBSRV Webserver running on local port 19080
T2714 001:406.335 - 1397.773ms returns "O.K."
T2714 001:406.354 JLINK_GetEmuCaps()
T2714 001:406.363 - 0.007ms returns 0xB8EA5A33
T2714 001:406.371 JLINK_TIF_GetAvailable(...)
T2714 001:406.552 - 0.180ms
T2714 001:406.562 JLINK_SetErrorOutHandler(...)
T2714 001:406.568 - 0.006ms
T2714 001:406.585 JLINK_ExecCommand("ProjectFile = "C:\Users\WuYunhao\Desktop\HERO\MPU6050\MDK-ARM\JLinkSettings.ini"", ...). 
T2714 001:415.054 - 8.468ms returns 0x00
T2714 001:415.098 JLINK_ExecCommand("Device = STM32H753VITx", ...). 
T2714 001:415.784   Flash bank @ 0x90000000: SFL: Parsing sectorization info from ELF file
T2714 001:415.799     FlashDevice.SectorInfo[0]: .SectorSize = 0x00010000, .SectorStartAddr = 0x00000000
T2714 001:426.745   Device "STM32H753VI" selected.
T2714 001:426.993 - 11.886ms returns 0x00
T2714 001:427.007 JLINK_ExecCommand("DisableConnectionTimeout", ...). 
T2714 001:427.016 - 0.001ms returns 0x01
T2714 001:427.024 JLINK_GetHardwareVersion()
T2714 001:427.031 - 0.007ms returns 10000
T2714 001:427.040 JLINK_GetDLLVersion()
T2714 001:427.046 - 0.006ms returns 79211
T2714 001:427.054 JLINK_GetOEMString(...)
T2714 001:427.061 JLINK_GetFirmwareString(...)
T2714 001:427.071 - 0.009ms
T2714 001:427.090 JLINK_GetDLLVersion()
T2714 001:427.096 - 0.006ms returns 79211
T2714 001:427.102 JLINK_GetCompileDateTime()
T2714 001:427.108 - 0.005ms
T2714 001:427.118 JLINK_GetFirmwareString(...)
T2714 001:427.124 - 0.006ms
T2714 001:427.133 JLINK_GetHardwareVersion()
T2714 001:427.139 - 0.006ms returns 10000
T2714 001:427.148 JLINK_GetSN()
T2714 001:427.155 - 0.006ms returns -1
T2714 001:427.161 JLINK_GetOEMString(...)
T2714 001:427.170 JLINK_TIF_Select(JLINKARM_TIF_SWD)
T2714 001:427.854 - 0.683ms returns 0x00
T2714 001:427.862 JLINK_HasError()
T2714 001:427.876 JLINK_SetSpeed(5000)
T2714 001:427.931 - 0.056ms
T2714 001:427.939 JLINK_GetId()
T2714 001:428.149   ConfigTargetSettings() start
T2714 001:428.159    J-Link Script File: Executing ConfigTargetSettings()
T2714 001:428.177   ConfigTargetSettings() end - Took 14us
T2714 001:428.189   InitTarget() start
T2714 001:428.199    J-Link Script File: Executing InitTarget()
T2714 001:428.344   SWD selected. Executing JTAG -> SWD switching sequence.
T2714 001:432.179   DAP initialized successfully.
T2714 001:456.766   InitTarget() end - Took 28.5ms
T2714 001:457.513   Found SW-DP with ID 0x6BA02477
T2714 001:461.746   Old FW that does not support reading DPIDR via DAP jobs
T2714 001:466.102   DPv0 detected
T2714 001:466.123   CoreSight SoC-400 or earlier
T2714 001:466.134   Scanning AP map to find all available APs
T2714 001:471.567   AP[3]: Stopped AP scan as end of AP map has been reached
T2714 001:471.596   AP[0]: AHB-AP (IDR: 0x84770001)
T2714 001:471.606   AP[1]: AHB-AP (IDR: 0x84770001)
T2714 001:471.616   AP[2]: APB-AP (IDR: 0x54770002)
T2714 001:471.627   Iterating through AP map to find AHB-AP to use
T2714 001:476.392   AP[0]: Core found
T2714 001:476.413   AP[0]: AHB-AP ROM base: 0xE00FE000
T2714 001:478.710   CPUID register: 0x411FC271. Implementer code: 0x41 (ARM)
T2714 001:480.984   Cache: L1 I/D-cache present
T2714 001:480.998   Found Cortex-M7 r1p1, Little endian.
T2714 001:481.327   -- Max. mem block: 0x00002220
T2714 001:482.022   CPU_ReadMem(4 bytes @ 0xE000EDF0)
T2714 001:482.487   CPU_ReadMem(4 bytes @ 0xE0002000)
T2714 001:482.906   FPUnit: 8 code (BP) slots and 0 literal slots
T2714 001:482.925   CPU_ReadMem(4 bytes @ 0xE000EDFC)
T2714 001:483.366   CPU_WriteMem(4 bytes @ 0xE000EDFC)
T2714 001:483.873   CPU_ReadMem(4 bytes @ 0xE0001000)
T2714 001:484.324   CPU_WriteMem(4 bytes @ 0xE0001000)
T2714 001:484.739   CPU_ReadMem(4 bytes @ 0xE000ED88)
T2714 001:485.149   CPU_WriteMem(4 bytes @ 0xE000ED88)
T2714 001:485.612   CPU_ReadMem(4 bytes @ 0xE000ED88)
T2714 001:486.030   CPU_WriteMem(4 bytes @ 0xE000ED88)
T2714 001:486.530   CoreSight components:
T2714 001:486.545   ROMTbl[0] @ E00FE000
T2714 001:486.576   CPU_ReadMem(64 bytes @ 0xE00FE000)
T2714 001:487.551   CPU_ReadMem(32 bytes @ 0xE00FFFE0)
T2714 001:488.331   [0][0]: E00FF000 CID B105100D PID 000BB4C7 ROM Table
T2714 001:488.343   ROMTbl[1] @ E00FF000
T2714 001:488.352   CPU_ReadMem(64 bytes @ 0xE00FF000)
T2714 001:489.353   CPU_ReadMem(32 bytes @ 0xE000EFE0)
T2714 001:490.065   [1][0]: E000E000 CID B105E00D PID 000BB00C SCS-M7
T2714 001:490.081   CPU_ReadMem(32 bytes @ 0xE0001FE0)
T2714 001:490.795   [1][1]: E0001000 CID B105E00D PID 000BB002 DWT
T2714 001:490.810   CPU_ReadMem(32 bytes @ 0xE0002FE0)
T2714 001:491.647   [1][2]: E0002000 CID B105E00D PID 000BB00E FPB-M7
T2714 001:491.664   CPU_ReadMem(32 bytes @ 0xE0000FE0)
T2714 001:492.383   [1][3]: E0000000 CID B105E00D PID 000BB001 ITM
T2714 001:492.393   CPU_ReadMem(32 bytes @ 0xE0041FE0)
T2714 001:493.146   [0][1]: E0041000 CID B105900D PID 001BB975 ETM-M7
T2714 001:493.205   CPU_ReadMem(32 bytes @ 0xE0043FE0)
T2714 001:493.899   [0][2]: E0043000 CID B105900D PID 004BB906 CTI
T2714 001:493.908   CPU_WriteMem(4 bytes @ 0xE000ED84)
T2714 001:494.403   CPU_ReadMem(4 bytes @ 0xE000ED80)
T2714 001:494.887   I-Cache L1: 16 KB, 256 Sets, 32 Bytes/Line, 2-Way
T2714 001:494.900   CPU_WriteMem(4 bytes @ 0xE000ED84)
T2714 001:495.324   CPU_ReadMem(4 bytes @ 0xE000ED80)
T2714 001:495.872   D-Cache L1: 16 KB, 128 Sets, 32 Bytes/Line, 4-Way
T2714 001:496.353 - 68.413ms returns 0x6BA02477
T2714 001:496.400 JLINK_GetDLLVersion()
T2714 001:496.407 - 0.006ms returns 79211
T2714 001:496.413 JLINK_CORE_GetFound()
T2714 001:496.420 - 0.006ms returns 0xE0100FF
T2714 001:496.430 JLINK_GetDebugInfo(0x100 = JLINKARM_ROM_TABLE_ADDR_INDEX)
T2714 001:496.436   Value=0xE00FE000
T2714 001:496.445 - 0.016ms returns 0
T2714 001:496.456 JLINK_GetDebugInfo(0x100 = JLINKARM_ROM_TABLE_ADDR_INDEX)
T2714 001:496.462   Value=0xE00FE000
T2714 001:496.470 - 0.014ms returns 0
T2714 001:496.477 JLINK_GetDebugInfo(0x101 = JLINKARM_DEBUG_INFO_ETM_ADDR_INDEX)
T2714 001:496.483   Value=0xE0041000
T2714 001:496.499 - 0.022ms returns 0
T2714 001:496.506 JLINK_ReadMemEx(0xE0041FD0, 0x20 Bytes, Flags = 0x02000004)
T2714 001:496.524   CPU_ReadMem(32 bytes @ 0xE0041FD0)
T2714 001:497.147   Data:  04 00 00 00 00 00 00 00 00 00 00 00 00 00 00 00 ...
T2714 001:497.157 - 0.650ms returns 32 (0x20)
T2714 001:497.164 JLINK_GetDebugInfo(0x102 = JLINKARM_DEBUG_INFO_MTB_ADDR_INDEX)
T2714 001:497.170   Value=0x00000000
T2714 001:497.179 - 0.015ms returns 0
T2714 001:497.185 JLINK_GetDebugInfo(0x103 = JLINKARM_DEBUG_INFO_TPIU_ADDR_INDEX)
T2714 001:497.192   Value=0xE00F5000
T2714 001:497.200 - 0.014ms returns 0
T2714 001:497.207 JLINK_GetDebugInfo(0x104 = JLINKARM_DEBUG_INFO_ITM_ADDR_INDEX)
T2714 001:497.215   Value=0xE0000000
T2714 001:497.225 - 0.018ms returns 0
T2714 001:497.232 JLINK_GetDebugInfo(0x105 = JLINKARM_DEBUG_INFO_DWT_ADDR_INDEX)
T2714 001:497.238   Value=0xE0001000
T2714 001:497.247 - 0.014ms returns 0
T2714 001:497.253 JLINK_GetDebugInfo(0x106 = JLINKARM_DEBUG_INFO_FPB_ADDR_INDEX)
T2714 001:497.259   Value=0xE0002000
T2714 001:497.268 - 0.015ms returns 0
T2714 001:497.274 JLINK_GetDebugInfo(0x107 = JLINKARM_DEBUG_INFO_NVIC_ADDR_INDEX)
T2714 001:497.280   Value=0xE000E000
T2714 001:497.289 - 0.014ms returns 0
T2714 001:497.295 JLINK_GetDebugInfo(0x10C = JLINKARM_DEBUG_INFO_DBG_ADDR_INDEX)
T2714 001:497.301   Value=0xE000EDF0
T2714 001:497.310 - 0.014ms returns 0
T2714 001:497.318 JLINK_GetDebugInfo(0x01 = Unknown)
T2714 001:497.324   Value=0x00000001
T2714 001:497.332 - 0.015ms returns 0
T2714 001:497.339 JLINK_ReadMemU32(0xE000ED00, 0x1 Items)
T2714 001:497.347   CPU_ReadMem(4 bytes @ 0xE000ED00)
T2714 001:497.878   Data:  71 C2 1F 41
T2714 001:497.889   Debug reg: CPUID
T2714 001:497.898 - 0.559ms returns 1 (0x1)
T2714 001:497.905 JLINK_GetDebugInfo(0x10F = JLINKARM_DEBUG_INFO_HAS_CORTEX_M_SECURITY_EXT_INDEX)
T2714 001:497.911   Value=0x00000000
T2714 001:497.920 - 0.014ms returns 0
T2714 001:497.927 JLINK_HasError()
T2714 001:497.934 JLINK_SetResetType(JLINKARM_CM3_RESET_TYPE_NORMAL)
T2714 001:497.940 - 0.006ms returns JLINKARM_CM3_RESET_TYPE_NORMAL
T2714 001:497.946 JLINK_Reset()
T2714 001:497.957   CPU is running
T2714 001:497.967   CPU_WriteMem(4 bytes @ 0xE000EDF0)
T2714 001:498.400   CPU is running
T2714 001:498.409   CPU_WriteMem(4 bytes @ 0xE000EDFC)
T2714 001:498.909   Reset: Halt core after reset via DEMCR.VC_CORERESET.
T2714 001:499.304   Reset: Reset device via AIRCR.SYSRESETREQ.
T2714 001:499.319   CPU is running
T2714 001:499.330   CPU_WriteMem(4 bytes @ 0xE000ED0C)
T2714 001:552.630   CPU_ReadMem(4 bytes @ 0xE000EDF0)
T2714 001:553.159   CPU_ReadMem(4 bytes @ 0xE000EDF0)
T2714 001:557.977   CPU_WriteMem(4 bytes @ 0xE000EDFC)
T2714 001:563.783   CPU_ReadMem(4 bytes @ 0xE000EDF0)
T2714 001:568.707   CPU_WriteMem(4 bytes @ 0xE0002000)
T2714 001:569.172   CPU_ReadMem(4 bytes @ 0xE000EDFC)
T2714 001:569.612   CPU_ReadMem(4 bytes @ 0xE0001000)
T2714 001:570.042 - 72.095ms
T2714 001:570.100 JLINK_HasError()
T2714 001:570.117 JLINK_ReadReg(R15 (PC))
T2714 001:570.132 - 0.018ms returns 0x08000368
T2714 001:570.144 JLINK_ReadReg(XPSR)
T2714 001:570.160 - 0.015ms returns 0x01000000
T2714 001:570.172 JLINK_Halt()
T2714 001:570.182 - 0.010ms returns 0x00
T2714 001:570.194 JLINK_ReadMemU32(0xE000EDF0, 0x1 Items)
T2714 001:570.211   CPU_ReadMem(4 bytes @ 0xE000EDF0)
T2714 001:570.625   Data:  03 00 03 00
T2714 001:570.642   Debug reg: DHCSR
T2714 001:570.658 - 0.463ms returns 1 (0x1)
T2714 001:570.672 JLINK_WriteU32_64(0xE000EDF0, 0xA05F0003)
T2714 001:570.683   Debug reg: DHCSR
T2714 001:571.018   CPU_WriteMem(4 bytes @ 0xE000EDF0)
T2714 001:571.538 - 0.864ms returns 0 (0x00000000)
T2714 001:571.576 JLINK_WriteU32_64(0xE000EDFC, 0x01000000)
T2714 001:571.586   Debug reg: DEMCR
T2714 001:571.602   CPU_WriteMem(4 bytes @ 0xE000EDFC)
T2714 001:572.108 - 0.530ms returns 0 (0x00000000)
T2714 001:572.169 JLINK_GetHWStatus(...)
T2714 001:572.338 - 0.169ms returns 0
T2714 001:572.360 JLINK_GetNumBPUnits(Type = 0xFFFFFF00)
T2714 001:572.370 - 0.009ms returns 0x08
T2714 001:572.380 JLINK_GetNumBPUnits(Type = 0xF0)
T2714 001:572.389 - 0.009ms returns 0x2000
T2714 001:572.399 JLINK_GetNumWPUnits()
T2714 001:572.410 - 0.011ms returns 4
T2714 001:572.426 JLINK_GetSpeed()
T2714 001:572.435 - 0.008ms returns 2000
T2714 001:572.448 JLINK_ReadMemU32(0xE000E004, 0x1 Items)
T2714 001:572.459   CPU_ReadMem(4 bytes @ 0xE000E004)
T2714 001:572.838   Data:  04 00 00 00
T2714 001:572.852 - 0.404ms returns 1 (0x1)
T2714 001:572.884 JLINK_ReadMemU32(0xE000E004, 0x1 Items)
T2714 001:572.894   CPU_ReadMem(4 bytes @ 0xE000E004)
T2714 001:573.271   Data:  04 00 00 00
T2714 001:573.285 - 0.401ms returns 1 (0x1)
T2714 001:573.299 JLINK_WriteMemEx(0xE0001000, 0x0000001C Bytes, Flags = 0x02000004)
T2714 001:573.312   Data:  01 00 00 00 00 00 00 00 00 00 00 00 00 00 00 00 ...
T2714 001:573.329   CPU_WriteMem(28 bytes @ 0xE0001000)
T2714 001:574.055 - 0.755ms returns 0x1C
T2714 001:574.071 JLINK_HasError()
T2714 001:574.082 JLINK_ReadReg(R15 (PC))
T2714 001:574.094 - 0.012ms returns 0x08000368
T2714 001:574.103 JLINK_ReadReg(XPSR)
T2714 001:574.112 - 0.009ms returns 0x01000000
T2714 001:579.804 JLINK_ReadMemEx(0xE0001004, 0x4 Bytes, Flags = 0x02000000)
T2714 001:579.821   Data:  00 00 00 00
T2714 001:579.831   Debug reg: DWT_CYCCNT
T2714 001:579.841 - 0.037ms returns 4 (0x4)
T2714 001:683.574 JLINK_HasError()
T2714 001:683.593 JLINK_SetResetType(JLINKARM_CM3_RESET_TYPE_NORMAL)
T2714 001:683.601 - 0.007ms returns JLINKARM_CM3_RESET_TYPE_NORMAL
T2714 001:683.619 JLINK_Reset()
T2714 001:683.637   CPU_WriteMem(4 bytes @ 0xE000EDF0)
T2714 001:684.136   CPU_WriteMem(4 bytes @ 0xE000EDFC)
T2714 001:684.598   Reset: Halt core after reset via DEMCR.VC_CORERESET.
T2714 001:685.089   Reset: Reset device via AIRCR.SYSRESETREQ.
T2714 001:685.101   CPU_WriteMem(4 bytes @ 0xE000ED0C)
T2714 001:738.655   CPU_ReadMem(4 bytes @ 0xE000EDF0)
T2714 001:739.151   CPU_ReadMem(4 bytes @ 0xE000EDF0)
T2714 001:739.613   CPU_WriteMem(4 bytes @ 0xE000EDFC)
T2714 001:746.376   CPU_ReadMem(4 bytes @ 0xE000EDF0)
T2714 001:751.298   CPU_WriteMem(4 bytes @ 0xE0002000)
T2714 001:751.875   CPU_ReadMem(4 bytes @ 0xE000EDFC)
T2714 001:752.418   CPU_ReadMem(4 bytes @ 0xE0001000)
T2714 001:752.851 - 69.231ms
T2714 001:752.904 JLINK_HasError()
T2714 001:752.920 JLINK_ReadReg(R15 (PC))
T2714 001:752.937 - 0.015ms returns 0x08000368
T2714 001:752.951 JLINK_ReadReg(XPSR)
T2714 001:752.965 - 0.013ms returns 0x01000000
T2714 001:753.557 JLINK_ReadMemEx(0x08000368, 0x3C Bytes, Flags = 0x02000000)
T2714 001:753.580   CPU_ReadMem(128 bytes @ 0x08000340)
T2714 001:755.365    -- Updating C cache (128 bytes @ 0x08000340)
T2714 001:755.393    -- Read from C cache (60 bytes @ 0x08000368)
T2714 001:755.416   Data:  09 48 80 47 09 48 00 47 FE E7 FE E7 FE E7 FE E7 ...
T2714 001:755.436 - 1.878ms returns 60 (0x3C)
T2714 001:755.453 JLINK_ReadMemEx(0x08000368, 0x2 Bytes, Flags = 0x02000000)
T2714 001:755.468    -- Read from C cache (2 bytes @ 0x08000368)
T2714 001:755.488   Data:  09 48
T2714 001:755.508 - 0.055ms returns 2 (0x2)
T2714 001:755.589 JLINK_ReadMemEx(0x0800036A, 0x2 Bytes, Flags = 0x02000000)
T2714 001:755.603    -- Read from C cache (2 bytes @ 0x0800036A)
T2714 001:755.622   Data:  80 47
T2714 001:755.641 - 0.052ms returns 2 (0x2)
T2714 001:755.668 JLINK_ReadMemEx(0x0800036A, 0x2 Bytes, Flags = 0x02000000)
T2714 001:755.682    -- Read from C cache (2 bytes @ 0x0800036A)
T2714 001:755.701   Data:  80 47
T2714 001:755.721 - 0.052ms returns 2 (0x2)
T2714 001:755.735 JLINK_ReadMemEx(0x0800036C, 0x3C Bytes, Flags = 0x02000000)
T2714 001:755.749    -- Read from C cache (60 bytes @ 0x0800036C)
T2714 001:755.768   Data:  09 48 00 47 FE E7 FE E7 FE E7 FE E7 FE E7 FE E7 ...
T2714 001:755.787 - 0.052ms returns 60 (0x3C)
T2714 001:755.802 JLINK_ReadMemEx(0x0800036C, 0x2 Bytes, Flags = 0x02000000)
T2714 001:755.815    -- Read from C cache (2 bytes @ 0x0800036C)
T2714 001:755.834   Data:  09 48
T2714 001:755.853 - 0.051ms returns 2 (0x2)
T2714 002:273.665 JLINK_ReadMemEx(0x0800036C, 0x3C Bytes, Flags = 0x02000000)
T2714 002:273.689    -- Read from C cache (60 bytes @ 0x0800036C)
T2714 002:273.700   Data:  09 48 00 47 FE E7 FE E7 FE E7 FE E7 FE E7 FE E7 ...
T2714 002:273.710 - 0.045ms returns 60 (0x3C)
T2714 002:273.717 JLINK_ReadMemEx(0x0800036C, 0x2 Bytes, Flags = 0x02000000)
T2714 002:273.724    -- Read from C cache (2 bytes @ 0x0800036C)
T2714 002:273.733   Data:  09 48
T2714 002:273.744 - 0.027ms returns 2 (0x2)
T2714 002:273.751 JLINK_ReadMemEx(0x0800036E, 0x2 Bytes, Flags = 0x02000000)
T2714 002:273.758    -- Read from C cache (2 bytes @ 0x0800036E)
T2714 002:273.767   Data:  00 47
T2714 002:273.776 - 0.025ms returns 2 (0x2)
T2714 002:397.311 JLINK_HasError()
T2714 002:397.328 JLINK_ReadReg(R0)
T2714 002:397.834 - 0.505ms returns 0x00000000
T2714 002:397.883 JLINK_ReadReg(R1)
T2714 002:397.897 - 0.015ms returns 0x00000000
T2714 002:397.903 JLINK_ReadReg(R2)
T2714 002:397.909 - 0.006ms returns 0x00000000
T2714 002:397.916 JLINK_ReadReg(R3)
T2714 002:397.922 - 0.006ms returns 0x00000000
T2714 002:397.928 JLINK_ReadReg(R4)
T2714 002:397.935 - 0.006ms returns 0x00000000
T2714 002:397.941 JLINK_ReadReg(R5)
T2714 002:397.947 - 0.006ms returns 0x00000000
T2714 002:397.954 JLINK_ReadReg(R6)
T2714 002:397.960 - 0.006ms returns 0x00000000
T2714 002:397.966 JLINK_ReadReg(R7)
T2714 002:397.972 - 0.006ms returns 0x00000000
T2714 002:397.981 JLINK_ReadReg(R8)
T2714 002:397.987 - 0.008ms returns 0x00000000
T2714 002:397.993 JLINK_ReadReg(R9)
T2714 002:397.999 - 0.006ms returns 0x00000000
T2714 002:398.006 JLINK_ReadReg(R10)
T2714 002:398.012 - 0.006ms returns 0x00000000
T2714 002:398.019 JLINK_ReadReg(R11)
T2714 002:398.025 - 0.006ms returns 0x00000000
T2714 002:398.031 JLINK_ReadReg(R12)
T2714 002:398.037 - 0.006ms returns 0x00000000
T2714 002:398.044 JLINK_ReadReg(R13 (SP))
T2714 002:398.051 - 0.006ms returns 0x240009A0
T2714 002:398.057 JLINK_ReadReg(R14)
T2714 002:398.063 - 0.006ms returns 0xFFFFFFFF
T2714 002:398.070 JLINK_ReadReg(R15 (PC))
T2714 002:398.076 - 0.006ms returns 0x08000368
T2714 002:398.082 JLINK_ReadReg(XPSR)
T2714 002:398.089 - 0.006ms returns 0x01000000
T2714 002:398.095 JLINK_ReadReg(MSP)
T2714 002:398.101 - 0.006ms returns 0x240009A0
T2714 002:398.107 JLINK_ReadReg(PSP)
T2714 002:398.113 - 0.006ms returns 0x00000000
T2714 002:398.120 JLINK_ReadReg(CFBP)
T2714 002:398.126 - 0.006ms returns 0x00000000
T2714 002:398.133 JLINK_ReadReg(FPSCR)
T2714 002:405.146 - 7.012ms returns 0x00000000
T2714 002:405.165 JLINK_ReadReg(FPS0)
T2714 002:405.173 - 0.007ms returns 0x00000000
T2714 002:405.180 JLINK_ReadReg(FPS1)
T2714 002:405.186 - 0.006ms returns 0x00000000
T2714 002:405.192 JLINK_ReadReg(FPS2)
T2714 002:405.199 - 0.006ms returns 0x00000000
T2714 002:405.205 JLINK_ReadReg(FPS3)
T2714 002:405.211 - 0.006ms returns 0x00000000
T2714 002:405.217 JLINK_ReadReg(FPS4)
T2714 002:405.224 - 0.006ms returns 0x00000000
T2714 002:405.230 JLINK_ReadReg(FPS5)
T2714 002:405.236 - 0.006ms returns 0x00000000
T2714 002:405.243 JLINK_ReadReg(FPS6)
T2714 002:405.249 - 0.006ms returns 0x00000000
T2714 002:405.255 JLINK_ReadReg(FPS7)
T2714 002:405.261 - 0.006ms returns 0x00000000
T2714 002:405.268 JLINK_ReadReg(FPS8)
T2714 002:405.274 - 0.006ms returns 0x00000000
T2714 002:405.280 JLINK_ReadReg(FPS9)
T2714 002:405.287 - 0.006ms returns 0x00000000
T2714 002:405.293 JLINK_ReadReg(FPS10)
T2714 002:405.299 - 0.006ms returns 0x00000000
T2714 002:405.306 JLINK_ReadReg(FPS11)
T2714 002:405.312 - 0.006ms returns 0x00000000
T2714 002:405.318 JLINK_ReadReg(FPS12)
T2714 002:405.324 - 0.006ms returns 0x00000000
T2714 002:405.331 JLINK_ReadReg(FPS13)
T2714 002:405.337 - 0.006ms returns 0x00000000
T2714 002:405.343 JLINK_ReadReg(FPS14)
T2714 002:405.349 - 0.006ms returns 0x00000000
T2714 002:405.360 JLINK_ReadReg(FPS15)
T2714 002:405.366 - 0.006ms returns 0xFFFFFFFF
T2714 002:405.372 JLINK_ReadReg(FPS16)
T2714 002:405.378 - 0.006ms returns 0x00000000
T2714 002:405.385 JLINK_ReadReg(FPS17)
T2714 002:405.391 - 0.006ms returns 0x00000000
T2714 002:405.397 JLINK_ReadReg(FPS18)
T2714 002:405.404 - 0.006ms returns 0x00000000
T2714 002:405.410 JLINK_ReadReg(FPS19)
T2714 002:405.416 - 0.006ms returns 0x00000000
T2714 002:405.422 JLINK_ReadReg(FPS20)
T2714 002:405.429 - 0.006ms returns 0x00000000
T2714 002:405.435 JLINK_ReadReg(FPS21)
T2714 002:405.441 - 0.006ms returns 0x00000000
T2714 002:405.448 JLINK_ReadReg(FPS22)
T2714 002:405.454 - 0.006ms returns 0x00000000
T2714 002:405.460 JLINK_ReadReg(FPS23)
T2714 002:405.467 - 0.006ms returns 0x00000000
T2714 002:405.473 JLINK_ReadReg(FPS24)
T2714 002:405.479 - 0.006ms returns 0x00000000
T2714 002:405.486 JLINK_ReadReg(FPS25)
T2714 002:405.494 - 0.008ms returns 0x00000000
T2714 002:405.501 JLINK_ReadReg(FPS26)
T2714 002:405.507 - 0.006ms returns 0x00000000
T2714 002:405.513 JLINK_ReadReg(FPS27)
T2714 002:405.520 - 0.006ms returns 0x00000000
T2714 002:405.526 JLINK_ReadReg(FPS28)
T2714 002:405.532 - 0.006ms returns 0x00000000
T2714 002:405.539 JLINK_ReadReg(FPS29)
T2714 002:405.545 - 0.006ms returns 0x00000000
T2714 002:405.551 JLINK_ReadReg(FPS30)
T2714 002:405.558 - 0.006ms returns 0x00000000
T2714 002:405.565 JLINK_ReadReg(FPS31)
T2714 002:405.571 - 0.006ms returns 0xFFFFFFFF
T7798 002:440.014 JLINK_ReadMemEx(0x08000368, 0x2 Bytes, Flags = 0x02000000)
T7798 002:440.043    -- Read from C cache (2 bytes @ 0x08000368)
T7798 002:440.053   Data:  09 48
T7798 002:440.063 - 0.049ms returns 2 (0x2)
T7798 002:440.071 JLINK_HasError()
T7798 002:440.081 JLINK_SetBPEx(Addr = 0x080063D4, Type = 0xFFFFFFF2)
T7798 002:440.091 - 0.010ms returns 0x00000001
T7798 002:440.098 JLINK_HasError()
T7798 002:440.105 JLINK_SetBPEx(Addr = 0x080021FC, Type = 0xFFFFFFF2)
T7798 002:440.112 - 0.006ms returns 0x00000002
T7798 002:440.119 JLINK_HasError()
T7798 002:440.126 JLINK_SetBPEx(Addr = 0x080022C6, Type = 0xFFFFFFF2)
T7798 002:440.133 - 0.006ms returns 0x00000003
T7798 002:440.139 JLINK_HasError()
T7798 002:440.146 JLINK_SetBPEx(Addr = 0x080022D6, Type = 0xFFFFFFF2)
T7798 002:440.153 - 0.006ms returns 0x00000004
T7798 002:440.160 JLINK_HasError()
T7798 002:440.167 JLINK_HasError()
T7798 002:440.174 JLINK_Go()
T7798 002:440.190   CPU_WriteMem(4 bytes @ 0xE0002000)
T7798 002:440.706   CPU_WriteMem(4 bytes @ 0xE0002000)
T7798 002:441.118   CPU_WriteMem(4 bytes @ 0xE0002000)
T7798 002:441.629   CPU_WriteMem(4 bytes @ 0xE0002000)
T7798 002:442.056   CPU_ReadMem(4 bytes @ 0xE0001000)
T7798 002:442.489   CPU_WriteMem(4 bytes @ 0xE0002008)
T7798 002:442.505   CPU_WriteMem(4 bytes @ 0xE000200C)
T7798 002:442.515   CPU_WriteMem(4 bytes @ 0xE0002010)
T7798 002:442.525   CPU_WriteMem(4 bytes @ 0xE0002014)
T7798 002:442.534   CPU_WriteMem(4 bytes @ 0xE0002018)
T7798 002:442.544   CPU_WriteMem(4 bytes @ 0xE000201C)
T7798 002:442.553   CPU_WriteMem(4 bytes @ 0xE0002020)
T7798 002:442.562   CPU_WriteMem(4 bytes @ 0xE0002024)
T7798 002:445.590   CPU_WriteMem(4 bytes @ 0xE0001004)
T7798 002:451.137   Memory map 'after startup completion point' is active
T7798 002:451.156 - 10.982ms
T7798 002:551.262 JLINK_HasError()
T7798 002:551.280 JLINK_IsHalted()
T7798 002:555.613 - 4.331ms returns TRUE
T7798 002:555.631 JLINK_HasError()
T7798 002:555.655 JLINK_Halt()
T7798 002:555.662 - 0.006ms returns 0x00
T7798 002:555.669 JLINK_IsHalted()
T7798 002:555.675 - 0.006ms returns TRUE
T7798 002:555.682 JLINK_IsHalted()
T7798 002:555.688 - 0.006ms returns TRUE
T7798 002:555.695 JLINK_IsHalted()
T7798 002:555.701 - 0.006ms returns TRUE
T7798 002:555.709 JLINK_HasError()
T7798 002:555.716 JLINK_ReadReg(R15 (PC))
T7798 002:555.724 - 0.008ms returns 0x08000F44
T7798 002:555.731 JLINK_ReadReg(XPSR)
T7798 002:555.738 - 0.006ms returns 0x01000000
T7798 002:555.748 JLINK_HasError()
T7798 002:555.755 JLINK_ClrBPEx(BPHandle = 0x00000001)
T7798 002:555.762 - 0.006ms returns 0x00
T7798 002:555.769 JLINK_HasError()
T7798 002:555.776 JLINK_ClrBPEx(BPHandle = 0x00000002)
T7798 002:555.782 - 0.006ms returns 0x00
T7798 002:555.789 JLINK_HasError()
T7798 002:555.796 JLINK_ClrBPEx(BPHandle = 0x00000003)
T7798 002:555.803 - 0.006ms returns 0x00
T7798 002:555.809 JLINK_HasError()
T7798 002:555.816 JLINK_ClrBPEx(BPHandle = 0x00000004)
T7798 002:555.823 - 0.006ms returns 0x00
T7798 002:555.829 JLINK_HasError()
T7798 002:555.836 JLINK_HasError()
T7798 002:555.843 JLINK_ReadMemU32(0xE000ED30, 0x1 Items)
T7798 002:555.854   CPU_ReadMem(4 bytes @ 0xE000ED30)
T7798 002:556.263   Data:  02 00 00 00
T7798 002:556.274 - 0.430ms returns 1 (0x1)
T7798 002:556.282 JLINK_ReadMemU32(0xE0001028, 0x1 Items)
T7798 002:556.290   CPU_ReadMem(4 bytes @ 0xE0001028)
T7798 002:556.673   Data:  00 00 00 00
T7798 002:556.689   Debug reg: DWT_FUNC[0]
T7798 002:556.701 - 0.419ms returns 1 (0x1)
T7798 002:556.710 JLINK_ReadMemU32(0xE0001038, 0x1 Items)
T7798 002:556.721   CPU_ReadMem(4 bytes @ 0xE0001038)
T7798 002:557.151   Data:  00 02 00 00
T7798 002:557.165   Debug reg: DWT_FUNC[1]
T7798 002:557.174 - 0.464ms returns 1 (0x1)
T7798 002:557.183 JLINK_ReadMemU32(0xE0001048, 0x1 Items)
T7798 002:557.194   CPU_ReadMem(4 bytes @ 0xE0001048)
T7798 002:557.565   Data:  00 00 00 00
T7798 002:557.576   Debug reg: DWT_FUNC[2]
T7798 002:557.585 - 0.402ms returns 1 (0x1)
T7798 002:557.593 JLINK_ReadMemU32(0xE0001058, 0x1 Items)
T7798 002:557.601   CPU_ReadMem(4 bytes @ 0xE0001058)
T7798 002:558.076   Data:  00 00 00 00
T7798 002:558.090   Debug reg: DWT_FUNC[3]
T7798 002:558.099 - 0.506ms returns 1 (0x1)
T7798 002:558.127 JLINK_HasError()
T7798 002:558.135 JLINK_ReadReg(R0)
T7798 002:558.143 - 0.008ms returns 0x00000001
T7798 002:558.150 JLINK_ReadReg(R1)
T7798 002:558.157 - 0.007ms returns 0x24000958
T7798 002:558.164 JLINK_ReadReg(R2)
T7798 002:558.172 - 0.007ms returns 0x00000000
T7798 002:558.179 JLINK_ReadReg(R3)
T7798 002:558.186 - 0.006ms returns 0x0800671D
T7798 002:558.193 JLINK_ReadReg(R4)
T7798 002:558.200 - 0.006ms returns 0x00000000
T7798 002:558.207 JLINK_ReadReg(R5)
T7798 002:558.214 - 0.007ms returns 0x00000001
T7798 002:558.221 JLINK_ReadReg(R6)
T7798 002:558.229 - 0.007ms returns 0x24000244
T7798 002:558.236 JLINK_ReadReg(R7)
T7798 002:558.243 - 0.006ms returns 0x0800671C
T7798 002:558.250 JLINK_ReadReg(R8)
T7798 002:558.257 - 0.006ms returns 0x00000000
T7798 002:558.264 JLINK_ReadReg(R9)
T7798 002:558.271 - 0.006ms returns 0x00000000
T7798 002:558.278 JLINK_ReadReg(R10)
T7798 002:558.285 - 0.006ms returns 0x08006748
T7798 002:558.292 JLINK_ReadReg(R11)
T7798 002:558.299 - 0.006ms returns 0x00000000
T7798 002:558.306 JLINK_ReadReg(R12)
T7798 002:558.314 - 0.007ms returns 0x00000000
T7798 002:558.321 JLINK_ReadReg(R13 (SP))
T7798 002:558.328 - 0.006ms returns 0x24000958
T7798 002:558.335 JLINK_ReadReg(R14)
T7798 002:558.341 - 0.006ms returns 0x08000F3F
T7798 002:558.352 JLINK_ReadReg(R15 (PC))
T7798 002:558.360 - 0.007ms returns 0x08000F44
T7798 002:558.367 JLINK_ReadReg(XPSR)
T7798 002:558.374 - 0.006ms returns 0x01000000
T7798 002:558.381 JLINK_ReadReg(MSP)
T7798 002:558.387 - 0.006ms returns 0x24000958
T7798 002:558.394 JLINK_ReadReg(PSP)
T7798 002:558.401 - 0.006ms returns 0x00000000
T7798 002:558.408 JLINK_ReadReg(CFBP)
T7798 002:558.415 - 0.006ms returns 0x04000000
T7798 002:558.422 JLINK_ReadReg(FPSCR)
T7798 002:565.212 - 6.789ms returns 0x03000000
T7798 002:565.224 JLINK_ReadReg(FPS0)
T7798 002:565.232 - 0.008ms returns 0x00000000
T7798 002:565.239 JLINK_ReadReg(FPS1)
T7798 002:565.246 - 0.006ms returns 0x00000000
T7798 002:565.253 JLINK_ReadReg(FPS2)
T7798 002:565.259 - 0.006ms returns 0x00000000
T7798 002:565.266 JLINK_ReadReg(FPS3)
T7798 002:565.273 - 0.006ms returns 0x00000000
T7798 002:565.280 JLINK_ReadReg(FPS4)
T7798 002:565.286 - 0.006ms returns 0x00000000
T7798 002:565.293 JLINK_ReadReg(FPS5)
T7798 002:565.300 - 0.006ms returns 0x00000000
T7798 002:565.307 JLINK_ReadReg(FPS6)
T7798 002:565.313 - 0.006ms returns 0x00000000
T7798 002:565.320 JLINK_ReadReg(FPS7)
T7798 002:565.326 - 0.006ms returns 0x00000000
T7798 002:565.333 JLINK_ReadReg(FPS8)
T7798 002:565.340 - 0.006ms returns 0x00000000
T7798 002:565.348 JLINK_ReadReg(FPS9)
T7798 002:565.354 - 0.006ms returns 0x00000000
T7798 002:565.361 JLINK_ReadReg(FPS10)
T7798 002:565.368 - 0.006ms returns 0x00000000
T7798 002:565.375 JLINK_ReadReg(FPS11)
T7798 002:565.382 - 0.006ms returns 0x00000000
T7798 002:565.389 JLINK_ReadReg(FPS12)
T7798 002:565.396 - 0.006ms returns 0x00000000
T7798 002:565.403 JLINK_ReadReg(FPS13)
T7798 002:565.410 - 0.006ms returns 0x00000000
T7798 002:565.418 JLINK_ReadReg(FPS14)
T7798 002:565.424 - 0.006ms returns 0x00000000
T7798 002:565.431 JLINK_ReadReg(FPS15)
T7798 002:565.440 - 0.008ms returns 0xFFFFFFFF
T7798 002:565.447 JLINK_ReadReg(FPS16)
T7798 002:565.454 - 0.006ms returns 0x00000000
T7798 002:565.462 JLINK_ReadReg(FPS17)
T7798 002:565.470 - 0.007ms returns 0x00000000
T7798 002:565.477 JLINK_ReadReg(FPS18)
T7798 002:565.484 - 0.006ms returns 0x00000000
T7798 002:565.491 JLINK_ReadReg(FPS19)
T7798 002:565.500 - 0.008ms returns 0x00000000
T7798 002:565.507 JLINK_ReadReg(FPS20)
T7798 002:565.513 - 0.006ms returns 0x00000000
T7798 002:565.522 JLINK_ReadReg(FPS21)
T7798 002:565.529 - 0.006ms returns 0x00000000
T7798 002:565.536 JLINK_ReadReg(FPS22)
T7798 002:565.543 - 0.006ms returns 0x00000000
T7798 002:565.550 JLINK_ReadReg(FPS23)
T7798 002:565.557 - 0.006ms returns 0x00000000
T7798 002:565.564 JLINK_ReadReg(FPS24)
T7798 002:565.570 - 0.006ms returns 0x00000000
T7798 002:565.578 JLINK_ReadReg(FPS25)
T7798 002:565.584 - 0.006ms returns 0x00000000
T7798 002:565.592 JLINK_ReadReg(FPS26)
T7798 002:565.598 - 0.006ms returns 0x00000000
T7798 002:565.606 JLINK_ReadReg(FPS27)
T7798 002:565.612 - 0.006ms returns 0x00000000
T7798 002:565.619 JLINK_ReadReg(FPS28)
T7798 002:565.626 - 0.006ms returns 0x00000000
T7798 002:565.635 JLINK_ReadReg(FPS29)
T7798 002:565.641 - 0.006ms returns 0x00000000
T7798 002:565.648 JLINK_ReadReg(FPS30)
T7798 002:565.654 - 0.006ms returns 0x00000000
T7798 002:565.661 JLINK_ReadReg(FPS31)
T7798 002:565.667 - 0.006ms returns 0xFFFFFFFF
T2714 002:565.798 JLINK_ReadMemEx(0x24000964, 0x4 Bytes, Flags = 0x02000000)
T2714 002:565.817   CPU_ReadMem(64 bytes @ 0x24000940)
T2714 002:566.784    -- Updating C cache (64 bytes @ 0x24000940)
T2714 002:566.797    -- Read from C cache (4 bytes @ 0x24000964)
T2714 002:566.807   Data:  EF 10 00 08
T2714 002:566.817 - 1.019ms returns 4 (0x4)
T2714 002:566.870 JLINK_ReadMemEx(0x24000964, 0x4 Bytes, Flags = 0x02000000)
T2714 002:566.879    -- Read from C cache (4 bytes @ 0x24000964)
T2714 002:566.888   Data:  EF 10 00 08
T2714 002:566.898 - 0.027ms returns 4 (0x4)
T2714 002:566.907 JLINK_ReadMemEx(0x2400097C, 0x4 Bytes, Flags = 0x02000000)
T2714 002:566.914    -- Read from C cache (4 bytes @ 0x2400097C)
T2714 002:566.924   Data:  41 0E 00 08
T2714 002:566.933 - 0.025ms returns 4 (0x4)
T2714 002:566.940 JLINK_ReadMemEx(0x24000968, 0x4 Bytes, Flags = 0x02000000)
T2714 002:566.947    -- Read from C cache (4 bytes @ 0x24000968)
T2714 002:566.956   Data:  60 03 00 24
T2714 002:566.966 - 0.025ms returns 4 (0x4)
T2714 002:566.973 JLINK_ReadMemEx(0x2400096C, 0x4 Bytes, Flags = 0x02000000)
T2714 002:566.980    -- Read from C cache (4 bytes @ 0x2400096C)
T2714 002:566.989   Data:  40 03 00 24
T2714 002:566.999 - 0.025ms returns 4 (0x4)
T2714 002:567.005 JLINK_ReadMemEx(0x24000970, 0x4 Bytes, Flags = 0x02000000)
T2714 002:567.012    -- Read from C cache (4 bytes @ 0x24000970)
T2714 002:567.022   Data:  00 00 00 00
T2714 002:567.031 - 0.025ms returns 4 (0x4)
T2714 002:567.038 JLINK_ReadMemEx(0x24000974, 0x4 Bytes, Flags = 0x02000000)
T2714 002:567.044    -- Read from C cache (4 bytes @ 0x24000974)
T2714 002:567.054   Data:  00 00 00 00
T2714 002:567.064 - 0.025ms returns 4 (0x4)
T2714 002:567.071 JLINK_ReadMemEx(0x24000978, 0x4 Bytes, Flags = 0x02000000)
T2714 002:567.077    -- Read from C cache (4 bytes @ 0x24000978)
T2714 002:567.087   Data:  00 00 00 00
T2714 002:567.096 - 0.025ms returns 4 (0x4)
T2714 002:567.103 JLINK_ReadMemEx(0x2400097C, 0x4 Bytes, Flags = 0x02000000)
T2714 002:567.109    -- Read from C cache (4 bytes @ 0x2400097C)
T2714 002:567.118   Data:  41 0E 00 08
T2714 002:567.127 - 0.024ms returns 4 (0x4)
T2714 002:567.134 JLINK_ReadMemEx(0x24000984, 0x4 Bytes, Flags = 0x02000000)
T2714 002:567.141   CPU_ReadMem(64 bytes @ 0x24000980)
T2714 002:568.147    -- Updating C cache (64 bytes @ 0x24000980)
T2714 002:568.176    -- Read from C cache (4 bytes @ 0x24000984)
T2714 002:568.192   Data:  3F 03 00 08
T2714 002:568.202 - 1.068ms returns 4 (0x4)
T2714 002:568.213 JLINK_ReadMemEx(0x24000980, 0x4 Bytes, Flags = 0x02000000)
T2714 002:568.223    -- Read from C cache (4 bytes @ 0x24000980)
T2714 002:568.233   Data:  60 03 00 24
T2714 002:568.243 - 0.029ms returns 4 (0x4)
T2714 002:568.284 JLINK_ReadMemEx(0x24000984, 0x4 Bytes, Flags = 0x02000000)
T2714 002:568.292    -- Read from C cache (4 bytes @ 0x24000984)
T2714 002:568.302   Data:  3F 03 00 08
T2714 002:568.311 - 0.027ms returns 4 (0x4)
T2714 002:570.985 JLINK_HasError()
T2714 002:570.999 JLINK_ReadMemU32(0xE0001004, 0x1 Items)
T2714 002:571.011   CPU_ReadMem(4 bytes @ 0xE0001004)
T2714 002:571.393   Data:  B7 0C 00 00
T2714 002:571.436   Debug reg: DWT_CYCCNT
T2714 002:571.445 - 0.446ms returns 1 (0x1)
T2714 002:576.251 JLINK_ReadMemEx(0x08000F44, 0x3C Bytes, Flags = 0x02000000)
T2714 002:576.271   CPU_ReadMem(64 bytes @ 0x08000F40)
T2714 002:577.271    -- Updating C cache (64 bytes @ 0x08000F40)
T2714 002:577.287    -- Read from C cache (60 bytes @ 0x08000F44)
T2714 002:577.298   Data:  AB BE 0E BD 08 B5 69 46 00 90 02 20 AB BE 08 BD ...
T2714 002:577.308 - 1.057ms returns 60 (0x3C)
T2714 002:577.317 JLINK_ReadMemEx(0x08000F44, 0x2 Bytes, Flags = 0x02000000)
T2714 002:577.325    -- Read from C cache (2 bytes @ 0x08000F44)
T2714 002:577.335   Data:  AB BE
T2714 002:577.345 - 0.027ms returns 2 (0x2)
T2714 002:577.353 JLINK_ReadMemEx(0x08000F46, 0x2 Bytes, Flags = 0x02000000)
T2714 002:577.360    -- Read from C cache (2 bytes @ 0x08000F46)
T2714 002:577.370   Data:  0E BD
T2714 002:577.380 - 0.026ms returns 2 (0x2)
T2714 002:577.392 JLINK_ReadMemEx(0x08000F46, 0x2 Bytes, Flags = 0x02000000)
T2714 002:577.399    -- Read from C cache (2 bytes @ 0x08000F46)
T2714 002:577.409   Data:  0E BD
T2714 002:577.419 - 0.026ms returns 2 (0x2)
T2714 002:577.426 JLINK_ReadMemEx(0x08000F48, 0x3C Bytes, Flags = 0x02000000)
T2714 002:577.434   CPU_ReadMem(64 bytes @ 0x08000F80)
T2714 002:578.484    -- Updating C cache (64 bytes @ 0x08000F80)
T2714 002:578.500    -- Read from C cache (60 bytes @ 0x08000F48)
T2714 002:578.510   Data:  08 B5 69 46 00 90 02 20 AB BE 08 BD 1F B5 8D E8 ...
T2714 002:578.522 - 1.095ms returns 60 (0x3C)
T2714 002:578.531 JLINK_ReadMemEx(0x08000F48, 0x2 Bytes, Flags = 0x02000000)
T2714 002:578.538    -- Read from C cache (2 bytes @ 0x08000F48)
T2714 002:578.548   Data:  08 B5
T2714 002:578.558 - 0.027ms returns 2 (0x2)
T2714 002:578.571 JLINK_ReadMemEx(0x08000F48, 0x3C Bytes, Flags = 0x02000000)
T2714 002:578.578    -- Read from C cache (60 bytes @ 0x08000F48)
T2714 002:578.588   Data:  08 B5 69 46 00 90 02 20 AB BE 08 BD 1F B5 8D E8 ...
T2714 002:578.598 - 0.027ms returns 60 (0x3C)
T2714 002:578.605 JLINK_ReadMemEx(0x08000F48, 0x2 Bytes, Flags = 0x02000000)
T2714 002:578.612    -- Read from C cache (2 bytes @ 0x08000F48)
T2714 002:578.622   Data:  08 B5
T2714 002:578.632 - 0.026ms returns 2 (0x2)
T2714 002:578.639 JLINK_ReadMemEx(0x08000F4A, 0x2 Bytes, Flags = 0x02000000)
T2714 002:578.646    -- Read from C cache (2 bytes @ 0x08000F4A)
T2714 002:578.656   Data:  69 46
T2714 002:578.666 - 0.026ms returns 2 (0x2)
T2714 002:578.674 JLINK_ReadMemEx(0x08000F4A, 0x2 Bytes, Flags = 0x02000000)
T2714 002:578.682    -- Read from C cache (2 bytes @ 0x08000F4A)
T2714 002:578.692   Data:  69 46
T2714 002:578.702 - 0.027ms returns 2 (0x2)
T2714 002:578.709 JLINK_ReadMemEx(0x08000F4C, 0x3C Bytes, Flags = 0x02000000)
T2714 002:578.716    -- Read from C cache (60 bytes @ 0x08000F4C)
T2714 002:578.726   Data:  00 90 02 20 AB BE 08 BD 1F B5 8D E8 07 00 69 46 ...
T2714 002:578.736 - 0.026ms returns 60 (0x3C)
T2714 002:578.743 JLINK_ReadMemEx(0x08000F4C, 0x2 Bytes, Flags = 0x02000000)
T2714 002:578.750    -- Read from C cache (2 bytes @ 0x08000F4C)
T2714 002:578.760   Data:  00 90
T2714 002:578.770 - 0.026ms returns 2 (0x2)
T2714 002:578.778 JLINK_ReadMemEx(0x08000F4C, 0x3C Bytes, Flags = 0x02000000)
T2714 002:578.785    -- Read from C cache (60 bytes @ 0x08000F4C)
T2714 002:578.795   Data:  00 90 02 20 AB BE 08 BD 1F B5 8D E8 07 00 69 46 ...
T2714 002:578.805 - 0.027ms returns 60 (0x3C)
T2714 002:578.813 JLINK_ReadMemEx(0x08000F4C, 0x2 Bytes, Flags = 0x02000000)
T2714 002:578.820    -- Read from C cache (2 bytes @ 0x08000F4C)
T2714 002:578.830   Data:  00 90
T2714 002:578.840 - 0.027ms returns 2 (0x2)
T2714 002:578.852 JLINK_ReadMemEx(0x08000F4E, 0x2 Bytes, Flags = 0x02000000)
T2714 002:578.859    -- Read from C cache (2 bytes @ 0x08000F4E)
T2714 002:578.870   Data:  02 20
T2714 002:578.880 - 0.028ms returns 2 (0x2)
T2714 002:578.889 JLINK_ReadMemEx(0x08000F4E, 0x2 Bytes, Flags = 0x02000000)
T2714 002:578.896    -- Read from C cache (2 bytes @ 0x08000F4E)
T2714 002:578.906   Data:  02 20
T2714 002:578.917 - 0.027ms returns 2 (0x2)
T2714 002:578.924 JLINK_ReadMemEx(0x08000F50, 0x3C Bytes, Flags = 0x02000000)
T2714 002:578.932    -- Read from C cache (60 bytes @ 0x08000F50)
T2714 002:578.942   Data:  AB BE 08 BD 1F B5 8D E8 07 00 69 46 05 20 AB BE ...
T2714 002:578.953 - 0.028ms returns 60 (0x3C)
T2714 002:578.961 JLINK_ReadMemEx(0x08000F50, 0x2 Bytes, Flags = 0x02000000)
T2714 002:578.967    -- Read from C cache (2 bytes @ 0x08000F50)
T2714 002:578.977   Data:  AB BE
T2714 002:578.987 - 0.026ms returns 2 (0x2)
T2714 002:579.009 JLINK_ReadMemEx(0x08000F50, 0x3C Bytes, Flags = 0x02000000)
T2714 002:579.016    -- Read from C cache (60 bytes @ 0x08000F50)
T2714 002:579.027   Data:  AB BE 08 BD 1F B5 8D E8 07 00 69 46 05 20 AB BE ...
T2714 002:579.037 - 0.027ms returns 60 (0x3C)
T2714 002:579.044 JLINK_ReadMemEx(0x08000F50, 0x2 Bytes, Flags = 0x02000000)
T2714 002:579.051    -- Read from C cache (2 bytes @ 0x08000F50)
T2714 002:579.061   Data:  AB BE
T2714 002:579.071 - 0.026ms returns 2 (0x2)
T2714 002:579.078 JLINK_ReadMemEx(0x08000F52, 0x2 Bytes, Flags = 0x02000000)
T2714 002:579.085    -- Read from C cache (2 bytes @ 0x08000F52)
T2714 002:579.095   Data:  08 BD
T2714 002:579.105 - 0.026ms returns 2 (0x2)
T7798 004:640.983 JLINK_ReadMemEx(0x08000F44, 0x2 Bytes, Flags = 0x02000000)
T7798 004:641.008    -- Read from C cache (2 bytes @ 0x08000F44)
T7798 004:641.019   Data:  AB BE
T7798 004:641.030 - 0.047ms returns 2 (0x2)
T7798 004:641.038 JLINK_HasError()
T7798 004:641.049 JLINK_WriteReg(R15 (PC), 0x08000F46)
T7798 004:641.059 - 0.011ms returns 0
T7798 004:641.067 JLINK_HasError()
T7798 004:641.075 JLINK_SetBPEx(Addr = 0x080021FC, Type = 0xFFFFFFF2)
T7798 004:641.083 - 0.008ms returns 0x00000005
T7798 004:641.091 JLINK_HasError()
T7798 004:641.098 JLINK_SetBPEx(Addr = 0x080022C6, Type = 0xFFFFFFF2)
T7798 004:641.105 - 0.007ms returns 0x00000006
T7798 004:641.112 JLINK_HasError()
T7798 004:641.120 JLINK_SetBPEx(Addr = 0x080022D6, Type = 0xFFFFFFF2)
T7798 004:641.127 - 0.007ms returns 0x00000007
T7798 004:641.134 JLINK_HasError()
T7798 004:641.142 JLINK_HasError()
T7798 004:641.150 JLINK_Go()
T7798 004:641.626   CPU_WriteMem(4 bytes @ 0xE0002000)
T7798 004:642.069   CPU_WriteMem(4 bytes @ 0xE0002000)
T7798 004:642.517   CPU_WriteMem(4 bytes @ 0xE0002000)
T7798 004:642.956   CPU_ReadMem(4 bytes @ 0xE0001000)
T7798 004:643.324   CPU_WriteMem(4 bytes @ 0xE0002008)
T7798 004:643.335   CPU_WriteMem(4 bytes @ 0xE000200C)
T7798 004:643.366   CPU_WriteMem(4 bytes @ 0xE0002010)
T7798 004:643.377   CPU_WriteMem(4 bytes @ 0xE0002014)
T7798 004:646.640 - 5.489ms
T7798 004:746.751 JLINK_HasError()
T7798 004:746.783 JLINK_IsHalted()
T7798 004:751.195 - 4.411ms returns TRUE
T7798 004:751.216 JLINK_HasError()
T7798 004:751.231 JLINK_Halt()
T7798 004:751.245 - 0.013ms returns 0x00
T7798 004:751.259 JLINK_IsHalted()
T7798 004:751.272 - 0.013ms returns TRUE
T7798 004:751.286 JLINK_IsHalted()
T7798 004:751.299 - 0.012ms returns TRUE
T7798 004:751.313 JLINK_IsHalted()
T7798 004:751.325 - 0.012ms returns TRUE
T7798 004:751.340 JLINK_HasError()
T7798 004:751.355 JLINK_ReadReg(R15 (PC))
T7798 004:751.371 - 0.016ms returns 0x08000F44
T7798 004:751.385 JLINK_ReadReg(XPSR)
T7798 004:751.398 - 0.013ms returns 0x01000000
T7798 004:751.415 JLINK_HasError()
T7798 004:751.429 JLINK_ClrBPEx(BPHandle = 0x00000005)
T7798 004:751.449 - 0.019ms returns 0x00
T7798 004:751.463 JLINK_HasError()
T7798 004:751.477 JLINK_ClrBPEx(BPHandle = 0x00000006)
T7798 004:751.491 - 0.013ms returns 0x00
T7798 004:751.505 JLINK_HasError()
T7798 004:751.518 JLINK_ClrBPEx(BPHandle = 0x00000007)
T7798 004:751.535 - 0.016ms returns 0x00
T7798 004:751.551 JLINK_HasError()
T7798 004:751.565 JLINK_HasError()
T7798 004:751.579 JLINK_ReadMemU32(0xE000ED30, 0x1 Items)
T7798 004:751.600   CPU_ReadMem(4 bytes @ 0xE000ED30)
T7798 004:752.068   Data:  02 00 00 00
T7798 004:752.089 - 0.509ms returns 1 (0x1)
T7798 004:752.109 JLINK_ReadMemU32(0xE0001028, 0x1 Items)
T7798 004:752.124   CPU_ReadMem(4 bytes @ 0xE0001028)
T7798 004:752.581   Data:  00 00 00 00
T7798 004:752.602   Debug reg: DWT_FUNC[0]
T7798 004:752.621 - 0.511ms returns 1 (0x1)
T7798 004:752.636 JLINK_ReadMemU32(0xE0001038, 0x1 Items)
T7798 004:752.651   CPU_ReadMem(4 bytes @ 0xE0001038)
T7798 004:753.039   Data:  00 02 00 00
T7798 004:753.060   Debug reg: DWT_FUNC[1]
T7798 004:753.079 - 0.443ms returns 1 (0x1)
T7798 004:753.094 JLINK_ReadMemU32(0xE0001048, 0x1 Items)
T7798 004:753.109   CPU_ReadMem(4 bytes @ 0xE0001048)
T7798 004:753.518   Data:  00 00 00 00
T7798 004:753.537   Debug reg: DWT_FUNC[2]
T7798 004:753.557 - 0.462ms returns 1 (0x1)
T7798 004:753.571 JLINK_ReadMemU32(0xE0001058, 0x1 Items)
T7798 004:753.586   CPU_ReadMem(4 bytes @ 0xE0001058)
T7798 004:753.992   Data:  00 00 00 00
T7798 004:754.012   Debug reg: DWT_FUNC[3]
T7798 004:754.031 - 0.459ms returns 1 (0x1)
T7798 004:754.076 JLINK_HasError()
T7798 004:754.091 JLINK_ReadReg(R0)
T7798 004:754.105 - 0.014ms returns 0x00000001
T7798 004:754.119 JLINK_ReadReg(R1)
T7798 004:754.132 - 0.013ms returns 0x24000958
T7798 004:754.146 JLINK_ReadReg(R2)
T7798 004:754.160 - 0.013ms returns 0x00000000
T7798 004:754.174 JLINK_ReadReg(R3)
T7798 004:754.187 - 0.013ms returns 0x08006721
T7798 004:754.201 JLINK_ReadReg(R4)
T7798 004:754.214 - 0.013ms returns 0x00000004
T7798 004:754.228 JLINK_ReadReg(R5)
T7798 004:754.241 - 0.013ms returns 0x00000002
T7798 004:754.255 JLINK_ReadReg(R6)
T7798 004:754.268 - 0.013ms returns 0x24000298
T7798 004:754.282 JLINK_ReadReg(R7)
T7798 004:754.295 - 0.013ms returns 0x08006720
T7798 004:754.309 JLINK_ReadReg(R8)
T7798 004:754.323 - 0.013ms returns 0x00000000
T7798 004:754.337 JLINK_ReadReg(R9)
T7798 004:754.350 - 0.012ms returns 0x00000000
T7798 004:754.364 JLINK_ReadReg(R10)
T7798 004:754.377 - 0.013ms returns 0x08006748
T7798 004:754.391 JLINK_ReadReg(R11)
T7798 004:754.404 - 0.013ms returns 0x00000000
T7798 004:754.418 JLINK_ReadReg(R12)
T7798 004:754.431 - 0.013ms returns 0x00000000
T7798 004:754.445 JLINK_ReadReg(R13 (SP))
T7798 004:754.458 - 0.013ms returns 0x24000958
T7798 004:754.473 JLINK_ReadReg(R14)
T7798 004:754.486 - 0.013ms returns 0x08000F3F
T7798 004:754.500 JLINK_ReadReg(R15 (PC))
T7798 004:754.513 - 0.013ms returns 0x08000F44
T7798 004:754.527 JLINK_ReadReg(XPSR)
T7798 004:754.540 - 0.013ms returns 0x01000000
T7798 004:754.554 JLINK_ReadReg(MSP)
T7798 004:754.567 - 0.013ms returns 0x24000958
T7798 004:754.581 JLINK_ReadReg(PSP)
T7798 004:754.594 - 0.013ms returns 0x00000000
T7798 004:754.608 JLINK_ReadReg(CFBP)
T7798 004:754.621 - 0.013ms returns 0x04000000
T7798 004:754.635 JLINK_ReadReg(FPSCR)
T7798 004:761.555 - 6.919ms returns 0x03000000
T7798 004:761.578 JLINK_ReadReg(FPS0)
T7798 004:761.600 - 0.021ms returns 0x00000000
T7798 004:761.619 JLINK_ReadReg(FPS1)
T7798 004:761.634 - 0.014ms returns 0x00000000
T7798 004:761.648 JLINK_ReadReg(FPS2)
T7798 004:761.661 - 0.013ms returns 0x00000000
T7798 004:761.676 JLINK_ReadReg(FPS3)
T7798 004:761.689 - 0.013ms returns 0x00000000
T7798 004:761.703 JLINK_ReadReg(FPS4)
T7798 004:761.716 - 0.013ms returns 0x00000000
T7798 004:761.730 JLINK_ReadReg(FPS5)
T7798 004:761.743 - 0.013ms returns 0x00000000
T7798 004:761.757 JLINK_ReadReg(FPS6)
T7798 004:761.770 - 0.013ms returns 0x00000000
T7798 004:761.792 JLINK_ReadReg(FPS7)
T7798 004:761.806 - 0.013ms returns 0x00000000
T7798 004:761.820 JLINK_ReadReg(FPS8)
T7798 004:761.833 - 0.013ms returns 0x00000000
T7798 004:761.847 JLINK_ReadReg(FPS9)
T7798 004:761.860 - 0.013ms returns 0x00000000
T7798 004:761.875 JLINK_ReadReg(FPS10)
T7798 004:761.888 - 0.013ms returns 0x00000000
T7798 004:761.903 JLINK_ReadReg(FPS11)
T7798 004:761.918 - 0.014ms returns 0x00000000
T7798 004:761.932 JLINK_ReadReg(FPS12)
T7798 004:761.945 - 0.013ms returns 0x00000000
T7798 004:761.959 JLINK_ReadReg(FPS13)
T7798 004:761.972 - 0.013ms returns 0x00000000
T7798 004:761.986 JLINK_ReadReg(FPS14)
T7798 004:761.999 - 0.012ms returns 0x00000000
T7798 004:762.013 JLINK_ReadReg(FPS15)
T7798 004:762.026 - 0.013ms returns 0xFFFFFFFF
T7798 004:762.040 JLINK_ReadReg(FPS16)
T7798 004:762.053 - 0.013ms returns 0x00000000
T7798 004:762.067 JLINK_ReadReg(FPS17)
T7798 004:762.080 - 0.012ms returns 0x00000000
T7798 004:762.094 JLINK_ReadReg(FPS18)
T7798 004:762.107 - 0.012ms returns 0x00000000
T7798 004:762.121 JLINK_ReadReg(FPS19)
T7798 004:762.134 - 0.013ms returns 0x00000000
T7798 004:762.148 JLINK_ReadReg(FPS20)
T7798 004:762.161 - 0.012ms returns 0x00000000
T7798 004:762.175 JLINK_ReadReg(FPS21)
T7798 004:762.188 - 0.012ms returns 0x00000000
T7798 004:762.201 JLINK_ReadReg(FPS22)
T7798 004:762.214 - 0.012ms returns 0x00000000
T7798 004:762.228 JLINK_ReadReg(FPS23)
T7798 004:762.242 - 0.013ms returns 0x00000000
T7798 004:762.255 JLINK_ReadReg(FPS24)
T7798 004:762.268 - 0.012ms returns 0x00000000
T7798 004:762.282 JLINK_ReadReg(FPS25)
T7798 004:762.295 - 0.012ms returns 0x00000000
T7798 004:762.309 JLINK_ReadReg(FPS26)
T7798 004:762.322 - 0.012ms returns 0x00000000
T7798 004:762.336 JLINK_ReadReg(FPS27)
T7798 004:762.349 - 0.012ms returns 0x00000000
T7798 004:762.363 JLINK_ReadReg(FPS28)
T7798 004:762.376 - 0.013ms returns 0x00000000
T7798 004:762.390 JLINK_ReadReg(FPS29)
T7798 004:762.408 - 0.018ms returns 0x00000000
T7798 004:762.422 JLINK_ReadReg(FPS30)
T7798 004:762.435 - 0.013ms returns 0x00000000
T7798 004:762.449 JLINK_ReadReg(FPS31)
T7798 004:762.462 - 0.012ms returns 0xFFFFFFFF
T2714 004:762.676 JLINK_ReadMemEx(0x24000964, 0x4 Bytes, Flags = 0x02000000)
T2714 004:762.716   CPU_ReadMem(64 bytes @ 0x24000940)
T2714 004:763.727    -- Updating C cache (64 bytes @ 0x24000940)
T2714 004:763.750    -- Read from C cache (4 bytes @ 0x24000964)
T2714 004:763.770   Data:  EF 10 00 08
T2714 004:763.790 - 1.114ms returns 4 (0x4)
T2714 004:763.812 JLINK_ReadMemEx(0x24000964, 0x4 Bytes, Flags = 0x02000000)
T2714 004:763.828    -- Read from C cache (4 bytes @ 0x24000964)
T2714 004:763.847   Data:  EF 10 00 08
T2714 004:763.867 - 0.055ms returns 4 (0x4)
T2714 004:763.883 JLINK_ReadMemEx(0x2400097C, 0x4 Bytes, Flags = 0x02000000)
T2714 004:763.897    -- Read from C cache (4 bytes @ 0x2400097C)
T2714 004:763.916   Data:  59 0E 00 08
T2714 004:763.936 - 0.052ms returns 4 (0x4)
T2714 004:763.950 JLINK_ReadMemEx(0x24000968, 0x4 Bytes, Flags = 0x02000000)
T2714 004:763.964    -- Read from C cache (4 bytes @ 0x24000968)
T2714 004:763.988   Data:  60 03 00 24
T2714 004:764.007 - 0.056ms returns 4 (0x4)
T2714 004:764.021 JLINK_ReadMemEx(0x2400096C, 0x4 Bytes, Flags = 0x02000000)
T2714 004:764.035    -- Read from C cache (4 bytes @ 0x2400096C)
T2714 004:764.054   Data:  40 03 00 24
T2714 004:764.074 - 0.052ms returns 4 (0x4)
T2714 004:764.088 JLINK_ReadMemEx(0x24000970, 0x4 Bytes, Flags = 0x02000000)
T2714 004:764.101    -- Read from C cache (4 bytes @ 0x24000970)
T2714 004:764.120   Data:  00 00 00 00
T2714 004:764.139 - 0.051ms returns 4 (0x4)
T2714 004:764.154 JLINK_ReadMemEx(0x24000974, 0x4 Bytes, Flags = 0x02000000)
T2714 004:764.167    -- Read from C cache (4 bytes @ 0x24000974)
T2714 004:764.186   Data:  00 00 00 00
T2714 004:764.205 - 0.052ms returns 4 (0x4)
T2714 004:764.219 JLINK_ReadMemEx(0x24000978, 0x4 Bytes, Flags = 0x02000000)
T2714 004:764.233    -- Read from C cache (4 bytes @ 0x24000978)
T2714 004:764.252   Data:  00 00 00 00
T2714 004:764.271 - 0.051ms returns 4 (0x4)
T2714 004:764.285 JLINK_ReadMemEx(0x2400097C, 0x4 Bytes, Flags = 0x02000000)
T2714 004:764.299    -- Read from C cache (4 bytes @ 0x2400097C)
T2714 004:764.318   Data:  59 0E 00 08
T2714 004:764.337 - 0.051ms returns 4 (0x4)
T2714 004:764.352 JLINK_ReadMemEx(0x24000984, 0x4 Bytes, Flags = 0x02000000)
T2714 004:764.369   CPU_ReadMem(64 bytes @ 0x24000980)
T2714 004:765.454    -- Updating C cache (64 bytes @ 0x24000980)
T2714 004:765.480    -- Read from C cache (4 bytes @ 0x24000984)
T2714 004:765.505   Data:  3F 03 00 08
T2714 004:765.524 - 1.172ms returns 4 (0x4)
T2714 004:765.541 JLINK_ReadMemEx(0x24000980, 0x4 Bytes, Flags = 0x02000000)
T2714 004:765.554    -- Read from C cache (4 bytes @ 0x24000980)
T2714 004:765.574   Data:  60 03 00 24
T2714 004:765.593 - 0.052ms returns 4 (0x4)
T2714 004:765.608 JLINK_ReadMemEx(0x24000984, 0x4 Bytes, Flags = 0x02000000)
T2714 004:765.621    -- Read from C cache (4 bytes @ 0x24000984)
T2714 004:765.640   Data:  3F 03 00 08
T2714 004:765.660 - 0.052ms returns 4 (0x4)
T2714 004:765.690 JLINK_HasError()
T2714 004:765.706 JLINK_ReadMemU32(0xE0001004, 0x1 Items)
T2714 004:765.725   CPU_ReadMem(4 bytes @ 0xE0001004)
T2714 004:766.117   Data:  66 0E 00 00
T2714 004:766.138   Debug reg: DWT_CYCCNT
T2714 004:766.157 - 0.451ms returns 1 (0x1)
T7798 006:728.523 JLINK_ReadMemEx(0x08000F44, 0x2 Bytes, Flags = 0x02000000)
T7798 006:728.565   CPU_ReadMem(64 bytes @ 0x08000F40)
T7798 006:729.678    -- Updating C cache (64 bytes @ 0x08000F40)
T7798 006:729.714    -- Read from C cache (2 bytes @ 0x08000F44)
T7798 006:729.735   Data:  AB BE
T7798 006:729.755 - 1.232ms returns 2 (0x2)
T7798 006:729.774 JLINK_HasError()
T7798 006:729.789 JLINK_WriteReg(R15 (PC), 0x08000F46)
T7798 006:729.805 - 0.016ms returns 0
T7798 006:729.818 JLINK_HasError()
T7798 006:729.831 JLINK_SetBPEx(Addr = 0x080021FC, Type = 0xFFFFFFF2)
T7798 006:729.844 - 0.013ms returns 0x00000008
T7798 006:729.856 JLINK_HasError()
T7798 006:729.868 JLINK_SetBPEx(Addr = 0x080022C6, Type = 0xFFFFFFF2)
T7798 006:729.880 - 0.012ms returns 0x00000009
